Time Stamp,ID,Extended,Dir,Bus,LEN,D1,D2,D3,D4,D5,D6,D7,D8
5645551,00000118,false,Rx,1,4,00,43,00,10,00,00,00,00,
5657516,00000118,false,Rx,1,4,00,44,00,10,00,00,00,00,
5666519,00000118,false,Rx,1,4,00,45,00,10,00,00,00,00,
16564,00000118,false,Rx,1,4,00,46,00,10,00,00,00,00,
26514,00000118,false,Rx,1,4,00,47,00,10,00,00,00,00,
36547,00000118,false,Rx,1,4,00,48,00,10,00,00,00,00,
46515,00000118,false,Rx,1,4,00,49,00,10,00,00,00,00,
59687,00000118,false,Rx,1,4,00,4A,00,10,00,00,00,00,
67521,00000118,false,Rx,1,4,00,4B,00,10,00,00,00,00,
78515,00000118,false,Rx,1,4,00,4C,00,10,00,00,00,00,
89814,00000118,false,Rx,1,4,00,4D,00,10,00,00,00,00,
99514,00000118,false,Rx,1,4,00,4E,00,10,00,00,00,00,
108553,00000118,false,Rx,1,4,00,4F,00,10,00,00,00,00,
120373,00000118,false,Rx,1,4,00,40,00,10,00,00,00,00,
129530,00000118,false,Rx,1,4,00,41,00,10,00,00,00,00,
141542,00000118,false,Rx,1,4,00,42,00,10,00,00,00,00,
150530,00000118,false,Rx,1,4,00,43,00,10,00,00,00,00,
161515,00000118,false,Rx,1,4,00,44,00,10,00,00,00,00,
170555,00000118,false,Rx,1,4,00,45,00,10,00,00,00,00,
182514,00000118,false,Rx,1,4,00,46,00,10,00,00,00,00,
191522,00000118,false,Rx,1,4,00,47,00,10,00,00,00,00,
202514,00000118,false,Rx,1,4,00,48,00,10,00,00,00,00,
213364,00000118,false,Rx,1,4,00,49,00,10,00,00,00,00,
223514,00000118,false,Rx,1,4,00,4A,00,10,00,00,00,00,
233521,00000118,false,Rx,1,4,00,4B,00,10,00,00,00,00,
243525,00000118,false,Rx,1,4,00,4C,00,10,00,00,00,00,
243546,17F0000F,true,Rx,1,8,00,0F,00,00,00,00,00,80,
253519,00000118,false,Rx,1,4,00,4D,00,10,00,00,00,00,
263565,00000118,false,Rx,1,4,00,4E,00,10,00,00,00,00,
273522,00000118,false,Rx,1,4,00,4F,00,10,00,00,00,00,
284518,00000118,false,Rx,1,4,00,40,00,10,00,00,00,00,
294522,00000118,false,Rx,1,4,00,41,00,10,00,00,00,00,
305524,00000118,false,Rx,1,4,00,42,00,10,00,00,00,00,
315517,00000118,false,Rx,1,4,00,43,00,10,00,00,00,00,
326526,00000118,false,Rx,1,4,00,44,00,10,00,00,00,00,
336514,00000118,false,Rx,1,4,00,45,00,10,00,00,00,00,
347519,00000118,false,Rx,1,4,00,46,00,10,00,00,00,00,
356515,00000118,false,Rx,1,4,00,47,00,10,00,00,00,00,
367564,00000118,false,Rx,1,4,00,48,00,10,00,00,00,00,
377515,00000118,false,Rx,1,4,00,49,00,10,00,00,00,00,
388525,00000118,false,Rx,1,4,00,4A,00,10,00,00,00,00,
398516,00000118,false,Rx,1,4,00,4B,00,10,00,00,00,00,
409522,00000118,false,Rx,1,4,00,4C,00,10,00,00,00,00,
419514,00000118,false,Rx,1,4,00,4D,00,10,00,00,00,00,
430521,00000118,false,Rx,1,4,00,4E,00,10,00,00,00,00,
439543,00000118,false,Rx,1,4,00,4F,00,10,00,00,00,00,
450519,00000118,false,Rx,1,4,00,40,00,10,00,00,00,00,
459540,00000118,false,Rx,1,4,00,41,00,10,00,00,00,00,
471520,00000118,false,Rx,1,4,00,42,00,10,00,00,00,00,
480523,00000118,false,Rx,1,4,00,43,00,10,00,00,00,00,
491567,00000118,false,Rx,1,4,00,44,00,10,00,00,00,00,
501515,00000118,false,Rx,1,4,00,45,00,10,00,00,00,00,
512525,00000118,false,Rx,1,4,00,46,00,10,00,00,00,00,
522519,00000118,false,Rx,1,4,00,47,00,10,00,00,00,00,
533514,00000118,false,Rx,1,4,00,48,00,10,00,00,00,00,
543519,00000118,false,Rx,1,4,00,49,00,10,00,00,00,00,
554514,00000118,false,Rx,1,4,00,4A,00,10,00,00,00,00,
563554,00000118,false,Rx,1,4,00,4B,00,10,00,00,00,00,
575522,00000118,false,Rx,1,4,00,4C,00,10,00,00,00,00,
584516,00000118,false,Rx,1,4,00,4D,00,10,00,00,00,00,
595561,00000118,false,Rx,1,4,00,4E,00,10,00,00,00,00,
605521,00000118,false,Rx,1,4,00,4F,00,10,00,00,00,00,
616514,00000118,false,Rx,1,4,00,40,00,10,00,00,00,00,
626558,00000118,false,Rx,1,4,00,41,00,10,00,00,00,00,
643604,00000118,false,Rx,1,4,00,42,00,10,00,00,00,00,
646789,00000118,false,Rx,1,4,00,43,00,10,00,00,00,00,
657525,00000118,false,Rx,1,4,00,44,00,10,00,00,00,00,
667517,00000118,false,Rx,1,4,00,45,00,10,00,00,00,00,
678516,00000118,false,Rx,1,4,00,46,00,10,00,00,00,00,
687536,00000118,false,Rx,1,4,00,47,00,10,00,00,00,00,
698555,00000118,false,Rx,1,4,00,48,00,10,00,00,00,00,
708518,00000118,false,Rx,1,4,00,49,00,10,00,00,00,00,
719520,00000118,false,Rx,1,4,00,4A,00,10,00,00,00,00,
729517,00000118,false,Rx,1,4,00,4B,00,10,00,00,00,00,
740519,00000118,false,Rx,1,4,00,4C,00,10,00,00,00,00,
750516,00000118,false,Rx,1,4,00,4D,00,10,00,00,00,00,
761521,00000118,false,Rx,1,4,00,4E,00,10,00,00,00,00,
761549,17F0000F,true,Rx,1,8,00,0F,00,00,00,00,00,80,
771521,00000118,false,Rx,1,4,00,4F,00,10,00,00,00,00,
781520,00000118,false,Rx,1,4,00,40,00,10,00,00,00,00,
791514,00000118,false,Rx,1,4,00,41,00,10,00,00,00,00,
802519,00000118,false,Rx,1,4,00,42,00,10,00,00,00,00,
812519,00000118,false,Rx,1,4,00,43,00,10,00,00,00,00,
823518,00000118,false,Rx,1,4,00,44,00,10,00,00,00,00,
832544,00000118,false,Rx,1,4,00,45,00,10,00,00,00,00,
844517,00000118,false,Rx,1,4,00,46,00,10,00,00,00,00,
853516,00000118,false,Rx,1,4,00,47,00,10,00,00,00,00,
864516,00000118,false,Rx,1,4,00,48,00,10,00,00,00,00,
873516,00000118,false,Rx,1,4,00,49,00,10,00,00,00,00,
884555,00000118,false,Rx,1,4,00,4A,00,10,00,00,00,00,
894516,00000118,false,Rx,1,4,00,4B,00,10,00,00,00,00,
905517,00000118,false,Rx,1,4,00,4C,00,10,00,00,00,00,
915516,00000118,false,Rx,1,4,00,4D,00,10,00,00,00,00,
926518,00000118,false,Rx,1,4,00,4E,00,10,00,00,00,00,
936516,00000118,false,Rx,1,4,00,4F,00,10,00,00,00,00,
947516,00000118,false,Rx,1,4,00,40,00,10,00,00,00,00,
956559,00000118,false,Rx,1,4,00,41,00,10,00,00,00,00,
967520,00000118,false,Rx,1,4,00,42,00,10,00,00,00,00,
977516,00000118,false,Rx,1,4,00,43,00,10,00,00,00,00,
988519,00000118,false,Rx,1,4,00,44,00,10,00,00,00,00,
998514,00000118,false,Rx,1,4,00,45,00,10,00,00,00,00,
1010994,00000118,false,Rx,1,4,00,46,00,10,00,00,00,00,
1018553,00000118,false,Rx,1,4,00,47,00,10,00,00,00,00,
1030519,00000118,false,Rx,1,4,00,48,00,10,00,00,00,00,
1039514,00000118,false,Rx,1,4,00,49,00,10,00,00,00,00,
1050519,00000118,false,Rx,1,4,00,4A,00,10,00,00,00,00,
1060514,00000118,false,Rx,1,4,00,4B,00,10,00,00,00,00,
1070521,00000118,false,Rx,1,4,00,4C,00,10,00,00,00,00,
1080514,00000118,false,Rx,1,4,00,4D,00,10,00,00,00,00,
1091520,00000118,false,Rx,1,4,00,4E,00,10,00,00,00,00,
1101514,00000118,false,Rx,1,4,00,4F,00,10,00,00,00,00,
1112521,00000118,false,Rx,1,4,00,40,00,10,00,00,00,00,
1122514,00000118,false,Rx,1,4,00,41,00,10,00,00,00,00,
1133570,00000118,false,Rx,1,4,00,42,00,10,00,00,00,00,
1143819,00000118,false,Rx,1,4,00,43,00,10,00,00,00,00,
1153564,00000118,false,Rx,1,4,00,44,00,10,00,00,00,00,
1163514,00000118,false,Rx,1,4,00,45,00,10,00,00,00,00,
1174523,00000118,false,Rx,1,4,00,46,00,10,00,00,00,00,
1184514,00000118,false,Rx,1,4,00,47,00,10,00,00,00,00,
1195520,00000118,false,Rx,1,4,00,48,00,10,00,00,00,00,
1205515,00000118,false,Rx,1,4,00,49,00,10,00,00,00,00,
1216523,00000118,false,Rx,1,4,00,4A,00,10,00,00,00,00,
1226514,00000118,false,Rx,1,4,00,4B,00,10,00,00,00,00,
1237520,00000118,false,Rx,1,4,00,4C,00,10,00,00,00,00,
1246514,00000118,false,Rx,1,4,00,4D,00,10,00,00,00,00,
1257561,00000118,false,Rx,1,4,00,4E,00,10,00,00,00,00,
1267525,00000118,false,Rx,1,4,00,4F,00,10,00,00,00,00,
1277539,00000118,false,Rx,1,4,00,40,00,10,00,00,00,00,
1279308,17F0000F,true,Rx,1,8,00,0F,00,00,00,00,00,80,
1288519,00000118,false,Rx,1,4,00,41,00,10,00,00,00,00,
1298519,00000118,false,Rx,1,4,00,42,00,10,00,00,00,00,
1308290,00000118,false,Rx,1,4,00,43,00,10,00,00,00,00,
1319523,00000118,false,Rx,1,4,00,44,00,10,00,00,00,00,
1328514,00000118,false,Rx,1,4,00,45,00,10,00,00,00,00,
1339561,00000118,false,Rx,1,4,00,46,00,10,00,00,00,00,
1349514,00000118,false,Rx,1,4,00,47,00,10,00,00,00,00,
1360520,00000118,false,Rx,1,4,00,48,00,10,00,00,00,00,
1370517,00000118,false,Rx,1,4,00,49,00,10,00,00,00,00,
1381522,00000118,false,Rx,1,4,00,4A,00,10,00,00,00,00,
1391514,00000118,false,Rx,1,4,00,4B,00,10,00,00,00,00,
1402519,00000118,false,Rx,1,4,00,4C,00,10,00,00,00,00,
1411540,00000118,false,Rx,1,4,00,4D,00,10,00,00,00,00,
1423527,00000118,false,Rx,1,4,00,4E,00,10,00,00,00,00,
1432514,00000118,false,Rx,1,4,00,4F,00,10,00,00,00,00,
1443545,00000118,false,Rx,1,4,00,40,00,10,00,00,00,00,
1453514,00000118,false,Rx,1,4,00,41,00,10,00,00,00,00,
1464519,00000118,false,Rx,1,4,00,42,00,10,00,00,00,00,
1474514,00000118,false,Rx,1,4,00,43,00,10,00,00,00,00,
1484520,00000118,false,Rx,1,4,00,44,00,10,00,00,00,00,
1494514,00000118,false,Rx,1,4,00,45,00,10,00,00,00,00,
1506880,00000118,false,Rx,1,4,00,46,00,10,00,00,00,00,
1515547,00000118,false,Rx,1,4,00,47,00,10,00,00,00,00,
1526516,00000118,false,Rx,1,4,00,48,00,10,00,00,00,00,
1535558,00000118,false,Rx,1,4,00,49,00,10,00,00,00,00,
1547516,00000118,false,Rx,1,4,00,4A,00,10,00,00,00,00,
1556519,00000118,false,Rx,1,4,00,4B,00,10,00,00,00,00,
1567895,00000118,false,Rx,1,4,00,4C,00,10,00,00,00,00,
1577521,00000118,false,Rx,1,4,00,4D,00,10,00,00,00,00,
1588515,00000118,false,Rx,1,4,00,4E,00,10,00,00,00,00,
1598519,00000118,false,Rx,1,4,00,4F,00,10,00,00,00,00,
1609514,00000118,false,Rx,1,4,00,40,00,10,00,00,00,00,
1619580,00000118,false,Rx,1,4,00,41,00,10,00,00,00,00,
1631543,00000118,false,Rx,1,4,00,42,00,10,00,00,00,00,
1639603,00000118,false,Rx,1,4,00,43,00,10,00,00,00,00,
1651695,00000118,false,Rx,1,4,00,44,00,10,00,00,00,00,
1660548,00000118,false,Rx,1,4,00,45,00,10,00,00,00,00,
1671515,00000118,false,Rx,1,4,00,46,00,10,00,00,00,00,
1681519,00000118,false,Rx,1,4,00,47,00,10,00,00,00,00,
1691514,00000118,false,Rx,1,4,00,48,00,10,00,00,00,00,
1701517,00000118,false,Rx,1,4,00,49,00,10,00,00,00,00,
1712516,00000118,false,Rx,1,4,00,4A,00,10,00,00,00,00,
1722522,00000118,false,Rx,1,4,00,4B,00,10,00,00,00,00,
1733516,00000118,false,Rx,1,4,00,4C,00,10,00,00,00,00,
1742561,00000118,false,Rx,1,4,00,4D,00,10,00,00,00,00,
1754514,00000118,false,Rx,1,4,00,4E,00,10,00,00,00,00,
1763542,00000118,false,Rx,1,4,00,4F,00,10,00,00,00,00,
1774549,00000118,false,Rx,1,4,00,40,00,10,00,00,00,00,
1784518,00000118,false,Rx,1,4,00,41,00,10,00,00,00,00,
1795600,00000118,false,Rx,1,4,00,42,00,10,00,00,00,00,
1795626,17F0000F,true,Rx,1,8,00,0F,00,00,00,00,00,80,
1805519,00000118,false,Rx,1,4,00,43,00,10,00,00,00,00,
1816514,00000118,false,Rx,1,4,00,44,00,10,00,00,00,00,
1825515,00000118,false,Rx,1,4,00,45,00,10,00,00,00,00,
1836545,00000118,false,Rx,1,4,00,46,00,10,00,00,00,00,
1846515,00000118,false,Rx,1,4,00,47,00,10,00,00,00,00,
1857518,00000118,false,Rx,1,4,00,48,00,10,00,00,00,00,
1867517,00000118,false,Rx,1,4,00,49,00,10,00,00,00,00,
1878517,00000118,false,Rx,1,4,00,4A,00,10,00,00,00,00,
1888514,00000118,false,Rx,1,4,00,4B,00,10,00,00,00,00,
1898518,00000118,false,Rx,1,4,00,4C,00,10,00,00,00,00,
1908516,00000118,false,Rx,1,4,00,4D,00,10,00,00,00,00,
1919517,00000118,false,Rx,1,4,00,4E,00,10,00,00,00,00,
1928554,00000118,false,Rx,1,4,00,4F,00,10,00,00,00,00,
1940518,00000118,false,Rx,1,4,00,40,00,10,00,00,00,00,
1949528,00000118,false,Rx,1,4,00,41,00,10,00,00,00,00,
1960514,00000118,false,Rx,1,4,00,42,00,10,00,00,00,00,
1970233,00000118,false,Rx,1,4,00,43,00,10,00,00,00,00,
1981514,00000118,false,Rx,1,4,00,44,00,10,00,00,00,00,
1991520,00000118,false,Rx,1,4,00,45,00,10,00,00,00,00,
2002514,00000118,false,Rx,1,4,00,46,00,10,00,00,00,00,
2012526,00000118,false,Rx,1,4,00,47,00,10,00,00,00,00,
2023519,00000118,false,Rx,1,4,00,48,00,10,00,00,00,00,
2032537,00000118,false,Rx,1,4,00,49,00,10,00,00,00,00,
2043557,00000118,false,Rx,1,4,00,4A,00,10,00,00,00,00,
2053514,00000118,false,Rx,1,4,00,4B,00,10,00,00,00,00,
2064520,00000118,false,Rx,1,4,00,4C,00,10,00,00,00,00,
2074514,00000118,false,Rx,1,4,00,4D,00,10,00,00,00,00,
2085521,00000118,false,Rx,1,4,00,4E,00,10,00,00,00,00,
2095514,00000118,false,Rx,1,4,00,4F,00,10,00,00,00,00,
2105519,00000118,false,Rx,1,4,00,40,00,10,00,00,00,00,
2115514,00000118,false,Rx,1,4,00,41,00,10,00,00,00,00,
2126520,00000118,false,Rx,1,4,00,42,00,10,00,00,00,00,
2135616,00000118,false,Rx,1,4,00,43,00,10,00,00,00,00,
2149363,00000118,false,Rx,1,4,00,44,00,10,00,00,00,00,
2156525,00000118,false,Rx,1,4,00,45,00,10,00,00,00,00,
2167564,00000118,false,Rx,1,4,00,46,00,10,00,00,00,00,
2177516,00000118,false,Rx,1,4,00,47,00,10,00,00,00,00,
2188519,00000118,false,Rx,1,4,00,48,00,10,00,00,00,00,
2198517,00000118,false,Rx,1,4,00,49,00,10,00,00,00,00,
2209517,00000118,false,Rx,1,4,00,4A,00,10,00,00,00,00,
2219517,00000118,false,Rx,1,4,00,4B,00,10,00,00,00,00,
2230519,00000118,false,Rx,1,4,00,4C,00,10,00,00,00,00,
2239546,00000118,false,Rx,1,4,00,4D,00,10,00,00,00,00,
2251519,00000118,false,Rx,1,4,00,4E,00,10,00,00,00,00,
2260648,00000118,false,Rx,1,4,00,4F,00,10,00,00,00,00,
2271583,00000118,false,Rx,1,4,00,40,00,10,00,00,00,00,
2281526,00000118,false,Rx,1,4,00,41,00,10,00,00,00,00,
2292517,00000118,false,Rx,1,4,00,42,00,10,00,00,00,00,
2302524,00000118,false,Rx,1,4,00,43,00,10,00,00,00,00,
2312529,00000118,false,Rx,1,4,00,44,00,10,00,00,00,00,
2312553,17F0000F,true,Rx,1,8,00,0F,00,00,00,00,00,80,
2322522,00000118,false,Rx,1,4,00,45,00,10,00,00,00,00,
2332519,00000118,false,Rx,1,4,00,46,00,10,00,00,00,00,
2342514,00000118,false,Rx,1,4,00,47,00,10,00,00,00,00,
2353520,00000118,false,Rx,1,4,00,48,00,10,00,00,00,00,
2363516,00000118,false,Rx,1,4,00,49,00,10,00,00,00,00,
2374520,00000118,false,Rx,1,4,00,4A,00,10,00,00,00,00,
2383543,00000118,false,Rx,1,4,00,4B,00,10,00,00,00,00,
2395518,00000118,false,Rx,1,4,00,4C,00,10,00,00,00,00,
2404515,00000118,false,Rx,1,4,00,4D,00,10,00,00,00,00,
2415518,00000118,false,Rx,1,4,00,4E,00,10,00,00,00,00,
2425515,00000118,false,Rx,1,4,00,4F,00,10,00,00,00,00,
2436518,00000118,false,Rx,1,4,00,40,00,10,00,00,00,00,
2445550,00000118,false,Rx,1,4,00,41,00,10,00,00,00,00,
2457521,00000118,false,Rx,1,4,00,42,00,10,00,00,00,00,
2466516,00000118,false,Rx,1,4,00,43,00,10,00,00,00,00,
2477519,00000118,false,Rx,1,4,00,44,00,10,00,00,00,00,
2487515,00000118,false,Rx,1,4,00,45,00,10,00,00,00,00,
2498518,00000118,false,Rx,1,4,00,46,00,10,00,00,00,00,
2508038,00000118,false,Rx,1,4,00,47,00,10,00,00,00,00,
2518520,00000118,false,Rx,1,4,00,48,00,10,00,00,00,00,
2528517,00000118,false,Rx,1,4,00,49,00,10,00,00,00,00,
2539542,00000118,false,Rx,1,4,00,4A,00,10,00,00,00,00,
2549517,00000118,false,Rx,1,4,00,4B,00,10,00,00,00,00,
2560520,00000118,false,Rx,1,4,00,4C,00,10,00,00,00,00,
2569515,00000118,false,Rx,1,4,00,4D,00,10,00,00,00,00,
2580553,00000118,false,Rx,1,4,00,4E,00,10,00,00,00,00,
2590519,00000118,false,Rx,1,4,00,4F,00,10,00,00,00,00,
2601520,00000118,false,Rx,1,4,00,40,00,10,00,00,00,00,
2611515,00000118,false,Rx,1,4,00,41,00,10,00,00,00,00,
2622533,00000118,false,Rx,1,4,00,42,00,10,00,00,00,00,
2637704,00000118,false,Rx,1,4,00,43,00,10,00,00,00,00,
2643614,00000118,false,Rx,1,4,00,44,00,10,00,00,00,00,
2653522,00000118,false,Rx,1,4,00,45,00,10,00,00,00,00,
2664534,00000118,false,Rx,1,4,00,46,00,10,00,00,00,00,
2673514,00000118,false,Rx,1,4,00,47,00,10,00,00,00,00,
2684551,00000118,false,Rx,1,4,00,48,00,10,00,00,00,00,
2694519,00000118,false,Rx,1,4,00,49,00,10,00,00,00,00,
2705515,00000118,false,Rx,1,4,00,4A,00,10,00,00,00,00,
2715519,00000118,false,Rx,1,4,00,4B,00,10,00,00,00,00,
2725516,00000118,false,Rx,1,4,00,4C,00,10,00,00,00,00,
2735519,00000118,false,Rx,1,4,00,4D,00,10,00,00,00,00,
2746520,00000118,false,Rx,1,4,00,4E,00,10,00,00,00,00,
2758708,00000118,false,Rx,1,4,00,4F,00,10,00,00,00,00,
2767523,00000118,false,Rx,1,4,00,40,00,10,00,00,00,00,
2776565,00000118,false,Rx,1,4,00,41,00,10,00,00,00,00,
2788517,00000118,false,Rx,1,4,00,42,00,10,00,00,00,00,
2797516,00000118,false,Rx,1,4,00,43,00,10,00,00,00,00,
2808531,00000118,false,Rx,1,4,00,44,00,10,00,00,00,00,
2818516,00000118,false,Rx,1,4,00,45,00,10,00,00,00,00,
2829527,00000118,false,Rx,1,4,00,46,00,10,00,00,00,00,
2829551,17F0000F,true,Rx,1,8,00,0F,00,00,00,00,00,80,
2839524,00000118,false,Rx,1,4,00,47,00,10,00,00,00,00,
2849516,00000118,false,Rx,1,4,00,48,00,10,00,00,00,00,
2859518,00000118,false,Rx,1,4,00,49,00,10,00,00,00,00,
2870516,00000118,false,Rx,1,4,00,4A,00,10,00,00,00,00,
2880518,00000118,false,Rx,1,4,00,4B,00,10,00,00,00,00,
2891516,00000118,false,Rx,1,4,00,4C,00,10,00,00,00,00,
2900555,00000118,false,Rx,1,4,00,4D,00,10,00,00,00,00,
2912516,00000118,false,Rx,1,4,00,4E,00,10,00,00,00,00,
2921527,00000118,false,Rx,1,4,00,4F,00,10,00,00,00,00,
2932515,00000118,false,Rx,1,4,00,40,00,10,00,00,00,00,
2941522,00000118,false,Rx,1,4,00,41,00,10,00,00,00,00,
2952515,00000118,false,Rx,1,4,00,42,00,10,00,00,00,00,
2962521,00000118,false,Rx,1,4,00,43,00,10,00,00,00,00,
2973514,00000118,false,Rx,1,4,00,44,00,10,00,00,00,00,
2983519,00000118,false,Rx,1,4,00,45,00,10,00,00,00,00,
2994514,00000118,false,Rx,1,4,00,46,00,10,00,00,00,00,
3004521,00000118,false,Rx,1,4,00,47,00,10,00,00,00,00,
3015524,00000118,false,Rx,1,4,00,48,00,10,00,00,00,00,
3024518,00000118,false,Rx,1,4,00,49,00,10,00,00,00,00,
3035545,00000118,false,Rx,1,4,00,4A,00,10,00,00,00,00,
3045518,00000118,false,Rx,1,4,00,4B,00,10,00,00,00,00,
3056515,00000118,false,Rx,1,4,00,4C,00,10,00,00,00,00,
3066520,00000118,false,Rx,1,4,00,4D,00,10,00,00,00,00,
3077515,00000118,false,Rx,1,4,00,4E,00,10,00,00,00,00,
3087520,00000118,false,Rx,1,4,00,4F,00,10,00,00,00,00,
3098519,00000118,false,Rx,1,4,00,40,00,10,00,00,00,00,
3108861,00000118,false,Rx,1,4,00,41,00,10,00,00,00,00,
3119514,00000118,false,Rx,1,4,00,42,00,10,00,00,00,00,
3128574,00000118,false,Rx,1,4,00,43,00,10,00,00,00,00,
3143011,00000118,false,Rx,1,4,00,44,00,10,00,00,00,00,
3148521,00000118,false,Rx,1,4,00,45,00,10,00,00,00,00,
3159565,00000118,false,Rx,1,4,00,46,00,10,00,00,00,00,
3169518,00000118,false,Rx,1,4,00,47,00,10,00,00,00,00,
3180520,00000118,false,Rx,1,4,00,48,00,10,00,00,00,00,
3190518,00000118,false,Rx,1,4,00,49,00,10,00,00,00,00,
3201515,00000118,false,Rx,1,4,00,4A,00,10,00,00,00,00,
3211518,00000118,false,Rx,1,4,00,4B,00,10,00,00,00,00,
3222515,00000118,false,Rx,1,4,00,4C,00,10,00,00,00,00,
3231553,00000118,false,Rx,1,4,00,4D,00,10,00,00,00,00,
3242515,00000118,false,Rx,1,4,00,4E,00,10,00,00,00,00,
3252519,00000118,false,Rx,1,4,00,4F,00,10,00,00,00,00,
3263518,00000118,false,Rx,1,4,00,40,00,10,00,00,00,00,
3273528,00000118,false,Rx,1,4,00,41,00,10,00,00,00,00,
3284521,00000118,false,Rx,1,4,00,42,00,10,00,00,00,00,
3293558,00000118,false,Rx,1,4,00,43,00,10,00,00,00,00,
3305515,00000118,false,Rx,1,4,00,44,00,10,00,00,00,00,
3314521,00000118,false,Rx,1,4,00,45,00,10,00,00,00,00,
3325514,00000118,false,Rx,1,4,00,46,00,10,00,00,00,00,
3335520,00000118,false,Rx,1,4,00,47,00,10,00,00,00,00,
3345514,00000118,false,Rx,1,4,00,48,00,10,00,00,00,00,
3347308,17F0000F,true,Rx,1,8,00,0F,00,00,00,00,00,80,
3355518,00000118,false,Rx,1,4,00,49,00,10,00,00,00,00,
3365559,00000118,false,Rx,1,4,00,4A,00,10,00,00,00,00,
3375518,00000118,false,Rx,1,4,00,4B,00,10,00,00,00,00,
3386520,00000118,false,Rx,1,4,00,4C,00,10,00,00,00,00,
3396517,00000118,false,Rx,1,4,00,4D,00,10,00,00,00,00,
3407518,00000118,false,Rx,1,4,00,4E,00,10,00,00,00,00,
3417516,00000118,false,Rx,1,4,00,4F,00,10,00,00,00,00,
3428530,00000118,false,Rx,1,4,00,40,00,10,00,00,00,00,
3437515,00000118,false,Rx,1,4,00,41,00,10,00,00,00,00,
3448559,00000118,false,Rx,1,4,00,42,00,10,00,00,00,00,
3458518,00000118,false,Rx,1,4,00,43,00,10,00,00,00,00,
3469523,00000118,false,Rx,1,4,00,44,00,10,00,00,00,00,
3479515,00000118,false,Rx,1,4,00,45,00,10,00,00,00,00,
3490520,00000118,false,Rx,1,4,00,46,00,10,00,00,00,00,
3500514,00000118,false,Rx,1,4,00,47,00,10,00,00,00,00,
3511523,00000118,false,Rx,1,4,00,48,00,10,00,00,00,00,
3521523,00000118,false,Rx,1,4,00,49,00,10,00,00,00,00,
3532514,00000118,false,Rx,1,4,00,4A,00,10,00,00,00,00,
3541519,00000118,false,Rx,1,4,00,4B,00,10,00,00,00,00,
3552514,00000118,false,Rx,1,4,00,4C,00,10,00,00,00,00,
3561631,00000118,false,Rx,1,4,00,4D,00,10,00,00,00,00,
3572552,00000118,false,Rx,1,4,00,4E,00,10,00,00,00,00,
3582521,00000118,false,Rx,1,4,00,4F,00,10,00,00,00,00,
3593514,00000118,false,Rx,1,4,00,40,00,10,00,00,00,00,
3603520,00000118,false,Rx,1,4,00,41,00,10,00,00,00,00,
3614519,00000118,false,Rx,1,4,00,42,00,10,00,00,00,00,
3623818,00000118,false,Rx,1,4,00,43,00,10,00,00,00,00,
3635537,00000118,false,Rx,1,4,00,44,00,10,00,00,00,00,
3648843,00000118,false,Rx,1,4,00,45,00,10,00,00,00,00,
3657533,00000118,false,Rx,1,4,00,46,00,10,00,00,00,00,
3665533,00000118,false,Rx,1,4,00,47,00,10,00,00,00,00,
3676558,00000118,false,Rx,1,4,00,48,00,10,00,00,00,00,
3686518,00000118,false,Rx,1,4,00,49,00,10,00,00,00,00,
3697518,00000118,false,Rx,1,4,00,4A,00,10,00,00,00,00,
3707516,00000118,false,Rx,1,4,00,4B,00,10,00,00,00,00,
3718518,00000118,false,Rx,1,4,00,4C,00,10,00,00,00,00,
3728517,00000118,false,Rx,1,4,00,4D,00,10,00,00,00,00,
3739518,00000118,false,Rx,1,4,00,4E,00,10,00,00,00,00,
3748559,00000118,false,Rx,1,4,00,4F,00,10,00,00,00,00,
3759518,00000118,false,Rx,1,4,00,40,00,10,00,00,00,00,
3768810,00000118,false,Rx,1,4,00,41,00,10,00,00,00,00,
3780518,00000118,false,Rx,1,4,00,42,00,10,00,00,00,00,
3789519,00000118,false,Rx,1,4,00,43,00,10,00,00,00,00,
3800517,00000118,false,Rx,1,4,00,44,00,10,00,00,00,00,
3810521,00000118,false,Rx,1,4,00,45,00,10,00,00,00,00,
3821514,00000118,false,Rx,1,4,00,46,00,10,00,00,00,00,
3831520,00000118,false,Rx,1,4,00,47,00,10,00,00,00,00,
3842515,00000118,false,Rx,1,4,00,48,00,10,00,00,00,00,
3852520,00000118,false,Rx,1,4,00,49,00,10,00,00,00,00,
3863515,00000118,false,Rx,1,4,00,4A,00,10,00,00,00,00,
3863536,17F0000F,true,Rx,1,8,00,0F,00,00,00,00,00,80,
3872560,00000118,false,Rx,1,4,00,4B,00,10,00,00,00,00,
3883521,00000118,false,Rx,1,4,00,4C,00,10,00,00,00,00,
3892514,00000118,false,Rx,1,4,00,4D,00,10,00,00,00,00,
3903558,00000118,false,Rx,1,4,00,4E,00,10,00,00,00,00,
3913515,00000118,false,Rx,1,4,00,4F,00,10,00,00,00,00,
3924519,00000118,false,Rx,1,4,00,40,00,10,00,00,00,00,
3934515,00000118,false,Rx,1,4,00,41,00,10,00,00,00,00,
3945520,00000118,false,Rx,1,4,00,42,00,10,00,00,00,00,
3955519,00000118,false,Rx,1,4,00,43,00,10,00,00,00,00,
3965524,00000118,false,Rx,1,4,00,44,00,10,00,00,00,00,
3975517,00000118,false,Rx,1,4,00,45,00,10,00,00,00,00,
3986521,00000118,false,Rx,1,4,00,46,00,10,00,00,00,00,
3996516,00000118,false,Rx,1,4,00,47,00,10,00,00,00,00,
4007519,00000118,false,Rx,1,4,00,48,00,10,00,00,00,00,
4016521,00000118,false,Rx,1,4,00,49,00,10,00,00,00,00,
4027554,00000118,false,Rx,1,4,00,4A,00,10,00,00,00,00,
4037516,00000118,false,Rx,1,4,00,4B,00,10,00,00,00,00,
4048519,00000118,false,Rx,1,4,00,4C,00,10,00,00,00,00,
4058516,00000118,false,Rx,1,4,00,4D,00,10,00,00,00,00,
4069516,00000118,false,Rx,1,4,00,4E,00,10,00,00,00,00,
4079516,00000118,false,Rx,1,4,00,4F,00,10,00,00,00,00,
4090518,00000118,false,Rx,1,4,00,40,00,10,00,00,00,00,
4099546,00000118,false,Rx,1,4,00,41,00,10,00,00,00,00,
4111524,00000118,false,Rx,1,4,00,42,00,10,00,00,00,00,
4120514,00000118,false,Rx,1,4,00,43,00,10,00,00,00,00,
4131585,00000118,false,Rx,1,4,00,44,00,10,00,00,00,00,
4141482,00000118,false,Rx,1,4,00,45,00,10,00,00,00,00,
4152525,00000118,false,Rx,1,4,00,46,00,10,00,00,00,00,
4162515,00000118,false,Rx,1,4,00,47,00,10,00,00,00,00,
4172519,00000118,false,Rx,1,4,00,48,00,10,00,00,00,00,
4182337,00000118,false,Rx,1,4,00,49,00,10,00,00,00,00,
4193520,00000118,false,Rx,1,4,00,4A,00,10,00,00,00,00,
4203519,00000118,false,Rx,1,4,00,4B,00,10,00,00,00,00,
4214524,00000118,false,Rx,1,4,00,4C,00,10,00,00,00,00,
4223544,00000118,false,Rx,1,4,00,4D,00,10,00,00,00,00,
4235521,00000118,false,Rx,1,4,00,4E,00,10,00,00,00,00,
4244514,00000118,false,Rx,1,4,00,4F,00,10,00,00,00,00,
4256340,00000118,false,Rx,1,4,00,40,00,10,00,00,00,00,
4265519,00000118,false,Rx,1,4,00,41,00,10,00,00,00,00,
4276524,00000118,false,Rx,1,4,00,42,00,10,00,00,00,00,
4286521,00000118,false,Rx,1,4,00,43,00,10,00,00,00,00,
4297520,00000118,false,Rx,1,4,00,44,00,10,00,00,00,00,
4307518,00000118,false,Rx,1,4,00,45,00,10,00,00,00,00,
4318522,00000118,false,Rx,1,4,00,46,00,10,00,00,00,00,
4327529,00000118,false,Rx,1,4,00,47,00,10,00,00,00,00,
4338559,00000118,false,Rx,1,4,00,48,00,10,00,00,00,00,
4348515,00000118,false,Rx,1,4,00,49,00,10,00,00,00,00,
4359521,00000118,false,Rx,1,4,00,4A,00,10,00,00,00,00,
4369515,00000118,false,Rx,1,4,00,4B,00,10,00,00,00,00,
4379519,00000118,false,Rx,1,4,00,4C,00,10,00,00,00,00,
4381443,17F0000F,true,Rx,1,8,00,0F,00,00,00,00,00,80,
4389525,00000118,false,Rx,1,4,00,4D,00,10,00,00,00,00,
4399514,00000118,false,Rx,1,4,00,4E,00,10,00,00,00,00,
4409519,00000118,false,Rx,1,4,00,4F,00,10,00,00,00,00,
4420514,00000118,false,Rx,1,4,00,40,00,10,00,00,00,00,
4430520,00000118,false,Rx,1,4,00,41,00,10,00,00,00,00,
4441514,00000118,false,Rx,1,4,00,42,00,10,00,00,00,00,
4451519,00000118,false,Rx,1,4,00,43,00,10,00,00,00,00,
4462520,00000118,false,Rx,1,4,00,44,00,10,00,00,00,00,
4471519,00000118,false,Rx,1,4,00,45,00,10,00,00,00,00,
4482562,00000118,false,Rx,1,4,00,46,00,10,00,00,00,00,
4492517,00000118,false,Rx,1,4,00,47,00,10,00,00,00,00,
4503517,00000118,false,Rx,1,4,00,48,00,10,00,00,00,00,
4513526,00000118,false,Rx,1,4,00,49,00,10,00,00,00,00,
4524518,00000118,false,Rx,1,4,00,4A,00,10,00,00,00,00,
4534517,00000118,false,Rx,1,4,00,4B,00,10,00,00,00,00,
4545517,00000118,false,Rx,1,4,00,4C,00,10,00,00,00,00,
4554549,00000118,false,Rx,1,4,00,4D,00,10,00,00,00,00,
4566515,00000118,false,Rx,1,4,00,4E,00,10,00,00,00,00,
4575516,00000118,false,Rx,1,4,00,4F,00,10,00,00,00,00,
4586517,00000118,false,Rx,1,4,00,40,00,10,00,00,00,00,
4595520,00000118,false,Rx,1,4,00,41,00,10,00,00,00,00,
4606552,00000118,false,Rx,1,4,00,42,00,10,00,00,00,00,
4616514,00000118,false,Rx,1,4,00,43,00,10,00,00,00,00,
4627565,00000118,false,Rx,1,4,00,44,00,10,00,00,00,00,
4637893,00000118,false,Rx,1,4,00,45,00,10,00,00,00,00,
4648524,00000118,false,Rx,1,4,00,46,00,10,00,00,00,00,
4658519,00000118,false,Rx,1,4,00,47,00,10,00,00,00,00,
4669521,00000118,false,Rx,1,4,00,48,00,10,00,00,00,00,
4678546,00000118,false,Rx,1,4,00,49,00,10,00,00,00,00,
4689365,00000118,false,Rx,1,4,00,4A,00,10,00,00,00,00,
4699524,00000118,false,Rx,1,4,00,4B,00,10,00,00,00,00,
4710519,00000118,false,Rx,1,4,00,4C,00,10,00,00,00,00,
4720514,00000118,false,Rx,1,4,00,4D,00,10,00,00,00,00,
4731520,00000118,false,Rx,1,4,00,4E,00,10,00,00,00,00,
4740557,00000118,false,Rx,1,4,00,4F,00,10,00,00,00,00,
4752519,00000118,false,Rx,1,4,00,40,00,10,00,00,00,00,
4761519,00000118,false,Rx,1,4,00,41,00,10,00,00,00,00,
4772521,00000118,false,Rx,1,4,00,42,00,10,00,00,00,00,
4782516,00000118,false,Rx,1,4,00,43,00,10,00,00,00,00,
4792521,00000118,false,Rx,1,4,00,44,00,10,00,00,00,00,
4802516,00000118,false,Rx,1,4,00,45,00,10,00,00,00,00,
4813517,00000118,false,Rx,1,4,00,46,00,10,00,00,00,00,
4823516,00000118,false,Rx,1,4,00,47,00,10,00,00,00,00,
4834517,00000118,false,Rx,1,4,00,48,00,10,00,00,00,00,
4844517,00000118,false,Rx,1,4,00,49,00,10,00,00,00,00,
4855517,00000118,false,Rx,1,4,00,4A,00,10,00,00,00,00,
4864516,00000118,false,Rx,1,4,00,4B,00,10,00,00,00,00,
4875546,00000118,false,Rx,1,4,00,4C,00,10,00,00,00,00,
4885516,00000118,false,Rx,1,4,00,4D,00,10,00,00,00,00,
4896519,00000118,false,Rx,1,4,00,4E,00,10,00,00,00,00,
4898374,17F0000F,true,Rx,1,8,00,0F,00,00,00,00,00,80,
4906516,00000118,false,Rx,1,4,00,4F,00,10,00,00,00,00,
4916519,00000118,false,Rx,1,4,00,40,00,10,00,00,00,00,
4926515,00000118,false,Rx,1,4,00,41,00,10,00,00,00,00,
4937515,00000118,false,Rx,1,4,00,42,00,10,00,00,00,00,
4947517,00000118,false,Rx,1,4,00,43,00,10,00,00,00,00,
4958516,00000118,false,Rx,1,4,00,44,00,10,00,00,00,00,
4967547,00000118,false,Rx,1,4,00,45,00,10,00,00,00,00,
4979516,00000118,false,Rx,1,4,00,46,00,10,00,00,00,00,
4988519,00000118,false,Rx,1,4,00,47,00,10,00,00,00,00,
4999519,00000118,false,Rx,1,4,00,48,00,10,00,00,00,00,
5008515,00000118,false,Rx,1,4,00,49,00,10,00,00,00,00,
5019929,00000118,false,Rx,1,4,00,4A,00,10,00,00,00,00,
5029518,00000118,false,Rx,1,4,00,4B,00,10,00,00,00,00,
5040515,00000118,false,Rx,1,4,00,4C,00,10,00,00,00,00,
5050518,00000118,false,Rx,1,4,00,4D,00,10,00,00,00,00,
5061515,00000118,false,Rx,1,4,00,4E,00,10,00,00,00,00,
5071516,00000118,false,Rx,1,4,00,4F,00,10,00,00,00,00,
5082520,00000118,false,Rx,1,4,00,40,00,10,00,00,00,00,
5091556,00000118,false,Rx,1,4,00,41,00,10,00,00,00,00,
5103517,00000118,false,Rx,1,4,00,42,00,10,00,00,00,00,
5112521,00000118,false,Rx,1,4,00,43,00,10,00,00,00,00,
5124906,00000118,false,Rx,1,4,00,44,00,10,00,00,00,00,
5133565,00000118,false,Rx,1,4,00,45,00,10,00,00,00,00,
5147028,00000118,false,Rx,1,4,00,46,00,10,00,00,00,00,
5155530,00000118,false,Rx,1,4,00,47,00,10,00,00,00,00,
5165519,00000118,false,Rx,1,4,00,48,00,10,00,00,00,00,
5175518,00000118,false,Rx,1,4,00,49,00,10,00,00,00,00,
5186518,00000118,false,Rx,1,4,00,4A,00,10,00,00,00,00,
5195551,00000118,false,Rx,1,4,00,4B,00,10,00,00,00,00,
5206517,00000118,false,Rx,1,4,00,4C,00,10,00,00,00,00,
5215547,00000118,false,Rx,1,4,00,4D,00,10,00,00,00,00,
5227518,00000118,false,Rx,1,4,00,4E,00,10,00,00,00,00,
5236517,00000118,false,Rx,1,4,00,4F,00,10,00,00,00,00,
5247517,00000118,false,Rx,1,4,00,40,00,10,00,00,00,00,
5257515,00000118,false,Rx,1,4,00,41,00,10,00,00,00,00,
5268520,00000118,false,Rx,1,4,00,42,00,10,00,00,00,00,
5278526,00000118,false,Rx,1,4,00,43,00,10,00,00,00,00,
5289521,00000118,false,Rx,1,4,00,44,00,10,00,00,00,00,
5299523,00000118,false,Rx,1,4,00,45,00,10,00,00,00,00,
5310516,00000118,false,Rx,1,4,00,46,00,10,00,00,00,00,
5319518,00000118,false,Rx,1,4,00,47,00,10,00,00,00,00,
5330543,00000118,false,Rx,1,4,00,48,00,10,00,00,00,00,
5340518,00000118,false,Rx,1,4,00,49,00,10,00,00,00,00,
5351517,00000118,false,Rx,1,4,00,4A,00,10,00,00,00,00,
5361518,00000118,false,Rx,1,4,00,4B,00,10,00,00,00,00,
5372521,00000118,false,Rx,1,4,00,4C,00,10,00,00,00,00,
5382518,00000118,false,Rx,1,4,00,4D,00,10,00,00,00,00,
5393516,00000118,false,Rx,1,4,00,4E,00,10,00,00,00,00,
5402558,00000118,false,Rx,1,4,00,4F,00,10,00,00,00,00,
5413516,00000118,false,Rx,1,4,00,40,00,10,00,00,00,00,
5413540,17F0000F,true,Rx,1,8,00,0F,00,00,00,00,00,80,
5422559,00000118,false,Rx,1,4,00,41,00,10,00,00,00,00,
5433526,00000118,false,Rx,1,4,00,42,00,10,00,00,00,00,
5442538,00000118,false,Rx,1,4,00,43,00,10,00,00,00,00,
5454520,00000118,false,Rx,1,4,00,44,00,10,00,00,00,00,
5463514,00000118,false,Rx,1,4,00,45,00,10,00,00,00,00,
5474562,00000118,false,Rx,1,4,00,46,00,10,00,00,00,00,
5484514,00000118,false,Rx,1,4,00,47,00,10,00,00,00,00,
5495525,00000118,false,Rx,1,4,00,48,00,10,00,00,00,00,
5505514,00000118,false,Rx,1,4,00,49,00,10,00,00,00,00,
5516525,00000118,false,Rx,1,4,00,4A,00,10,00,00,00,00,
5525521,00000118,false,Rx,1,4,00,4B,00,10,00,00,00,00,
5536542,00000118,false,Rx,1,4,00,4C,00,10,00,00,00,00,
5546515,00000118,false,Rx,1,4,00,4D,00,10,00,00,00,00,
5557518,00000118,false,Rx,1,4,00,4E,00,10,00,00,00,00,
5567515,00000118,false,Rx,1,4,00,4F,00,10,00,00,00,00,
5578519,00000118,false,Rx,1,4,00,40,00,10,00,00,00,00,
5588515,00000118,false,Rx,1,4,00,41,00,10,00,00,00,00,
5599518,00000118,false,Rx,1,4,00,42,00,10,00,00,00,00,
5608543,00000118,false,Rx,1,4,00,43,00,10,00,00,00,00,
5619520,00000118,false,Rx,1,4,00,44,00,10,00,00,00,00,
5628543,00000118,false,Rx,1,4,00,45,00,10,00,00,00,00,
5640555,00000118,false,Rx,1,4,00,46,00,10,00,00,00,00,
5650452,00000118,false,Rx,1,4,00,47,00,10,00,00,00,00,
5661385,00000118,false,Rx,1,4,00,48,00,10,00,00,00,00,
5670517,00000118,false,Rx,1,4,00,49,00,10,00,00,00,00,
5681520,00000118,false,Rx,1,4,00,4A,00,10,00,00,00,00,
5691517,00000118,false,Rx,1,4,00,4B,00,10,00,00,00,00,
5702519,00000118,false,Rx,1,4,00,4C,00,10,00,00,00,00,
5712515,00000118,false,Rx,1,4,00,4D,00,10,00,00,00,00,
5723522,00000118,false,Rx,1,4,00,4E,00,10,00,00,00,00,
5732514,00000118,false,Rx,1,4,00,4F,00,10,00,00,00,00,
5743553,00000118,false,Rx,1,4,00,40,00,10,00,00,00,00,
5753517,00000118,false,Rx,1,4,00,41,00,10,00,00,00,00,
5764522,00000118,false,Rx,1,4,00,42,00,10,00,00,00,00,
5774522,00000118,false,Rx,1,4,00,43,00,10,00,00,00,00,
5785520,00000118,false,Rx,1,4,00,44,00,10,00,00,00,00,
5795514,00000118,false,Rx,1,4,00,45,00,10,00,00,00,00,
5806522,00000118,false,Rx,1,4,00,46,00,10,00,00,00,00,
5815722,00000118,false,Rx,1,4,00,47,00,10,00,00,00,00,
5826519,00000118,false,Rx,1,4,00,48,00,10,00,00,00,00,
5836515,00000118,false,Rx,1,4,00,49,00,10,00,00,00,00,
5847526,00000118,false,Rx,1,4,00,4A,00,10,00,00,00,00,
5856516,00000118,false,Rx,1,4,00,4B,00,10,00,00,00,00,
5867558,00000118,false,Rx,1,4,00,4C,00,10,00,00,00,00,
5877514,00000118,false,Rx,1,4,00,4D,00,10,00,00,00,00,
5888520,00000118,false,Rx,1,4,00,4E,00,10,00,00,00,00,
5898514,00000118,false,Rx,1,4,00,4F,00,10,00,00,00,00,
5909519,00000118,false,Rx,1,4,00,40,00,10,00,00,00,00,
5919515,00000118,false,Rx,1,4,00,41,00,10,00,00,00,00,
5930522,00000118,false,Rx,1,4,00,42,00,10,00,00,00,00,
5930547,17F0000F,true,Rx,1,8,00,0F,00,00,00,00,00,80,
5939561,00000118,false,Rx,1,4,00,43,00,10,00,00,00,00,
5950514,00000118,false,Rx,1,4,00,44,00,10,00,00,00,00,
5959557,00000118,false,Rx,1,4,00,45,00,10,00,00,00,00,
5971514,00000118,false,Rx,1,4,00,46,00,10,00,00,00,00,
5980519,00000118,false,Rx,1,4,00,47,00,10,00,00,00,00,
5991527,00000118,false,Rx,1,4,00,48,00,10,00,00,00,00,
6001521,00000118,false,Rx,1,4,00,49,00,10,00,00,00,00,
6012515,00000118,false,Rx,1,4,00,4A,00,10,00,00,00,00,
6021899,00000118,false,Rx,1,4,00,4B,00,10,00,00,00,00,
6032520,00000118,false,Rx,1,4,00,4C,00,10,00,00,00,00,
6042515,00000118,false,Rx,1,4,00,4D,00,10,00,00,00,00,
6053526,00000118,false,Rx,1,4,00,4E,00,10,00,00,00,00,
6063514,00000118,false,Rx,1,4,00,4F,00,10,00,00,00,00,
6074520,00000118,false,Rx,1,4,00,40,00,10,00,00,00,00,
6083544,00000118,false,Rx,1,4,00,41,00,10,00,00,00,00,
6095519,00000118,false,Rx,1,4,00,42,00,10,00,00,00,00,
6104514,00000118,false,Rx,1,4,00,43,00,10,00,00,00,00,
6115521,00000118,false,Rx,1,4,00,44,00,10,00,00,00,00,
6125524,00000118,false,Rx,1,4,00,45,00,10,00,00,00,00,
6136547,00000118,false,Rx,1,4,00,46,00,10,00,00,00,00,
6148951,00000118,false,Rx,1,4,00,47,00,10,00,00,00,00,
6158358,00000118,false,Rx,1,4,00,48,00,10,00,00,00,00,
6167517,00000118,false,Rx,1,4,00,49,00,10,00,00,00,00,
6178521,00000118,false,Rx,1,4,00,4A,00,10,00,00,00,00,
6187514,00000118,false,Rx,1,4,00,4B,00,10,00,00,00,00,
6198552,00000118,false,Rx,1,4,00,4C,00,10,00,00,00,00,
6208519,00000118,false,Rx,1,4,00,4D,00,10,00,00,00,00,
6213507,00000200,false,Rx,0,7,1F,C0,00,10,00,03,01,00,
6219520,00000118,false,Rx,1,4,00,4E,00,10,00,00,00,00,
6229520,00000118,false,Rx,1,4,00,4F,00,10,00,00,00,00,
6239543,00000118,false,Rx,1,4,00,40,00,10,00,00,00,00,
6249515,00000118,false,Rx,1,4,00,41,00,10,00,00,00,00,
6260667,00000118,false,Rx,1,4,00,42,00,10,00,00,00,00,
6270934,00000118,false,Rx,1,4,00,43,00,10,00,00,00,00,
6281517,00000118,false,Rx,1,4,00,44,00,10,00,00,00,00,
6290511,00000200,false,Rx,0,7,1F,C0,00,10,00,03,01,00,
6290553,00000118,false,Rx,1,4,00,45,00,10,00,00,00,00,
6302521,00000118,false,Rx,1,4,00,46,00,10,00,00,00,00,
6311525,00000118,false,Rx,1,4,00,47,00,10,00,00,00,00,
6322565,00000118,false,Rx,1,4,00,48,00,10,00,00,00,00,
6332520,00000118,false,Rx,1,4,00,49,00,10,00,00,00,00,
6343515,00000118,false,Rx,1,4,00,4A,00,10,00,00,00,00,
6353521,00000118,false,Rx,1,4,00,4B,00,10,00,00,00,00,
6364516,00000118,false,Rx,1,4,00,4C,00,10,00,00,00,00,
6367643,00000200,false,Rx,0,7,1F,C0,00,10,00,03,01,00,
6374517,00000118,false,Rx,1,4,00,4D,00,10,00,00,00,00,
6385519,00000118,false,Rx,1,4,00,4E,00,10,00,00,00,00,
6394543,00000118,false,Rx,1,4,00,4F,00,10,00,00,00,00,
6406518,00000118,false,Rx,1,4,00,40,00,10,00,00,00,00,
6415515,00000118,false,Rx,1,4,00,41,00,10,00,00,00,00,
6426551,00000118,false,Rx,1,4,00,42,00,10,00,00,00,00,
6436517,00000118,false,Rx,1,4,00,43,00,10,00,00,00,00,
6444511,00000200,false,Rx,0,7,1F,C0,00,10,00,03,01,00,
6446447,00000118,false,Rx,1,4,00,44,00,10,00,00,00,00,
6448370,17F0000F,true,Rx,1,8,00,0F,00,00,00,00,00,80,
6456520,00000118,false,Rx,1,4,00,45,00,10,00,00,00,00,
6466539,00000118,false,Rx,1,4,00,46,00,10,00,00,00,00,
6476515,00000118,false,Rx,1,4,00,47,00,10,00,00,00,00,
6487959,00000118,false,Rx,1,4,00,48,00,10,00,00,00,00,
6497515,00000118,false,Rx,1,4,00,49,00,10,00,00,00,00,
6508521,00000118,false,Rx,1,4,00,4A,00,10,00,00,00,00,
6518518,00000118,false,Rx,1,4,00,4B,00,10,00,00,00,00,
6522120,00000200,false,Rx,0,7,1F,C0,00,10,00,03,01,00,
6529521,00000118,false,Rx,1,4,00,4C,00,10,00,00,00,00,
6538560,00000118,false,Rx,1,4,00,4D,00,10,00,00,00,00,
6550514,00000118,false,Rx,1,4,00,4E,00,10,00,00,00,00,
6559520,00000118,false,Rx,1,4,00,4F,00,10,00,00,00,00,
6570514,00000118,false,Rx,1,4,00,40,00,10,00,00,00,00,
6580519,00000118,false,Rx,1,4,00,41,00,10,00,00,00,00,
6591514,00000118,false,Rx,1,4,00,42,00,10,00,00,00,00,
6597554,00000200,false,Rx,0,7,1F,C0,00,10,00,03,01,00,
6601515,00000118,false,Rx,1,4,00,43,00,10,00,00,00,00,
6612518,00000118,false,Rx,1,4,00,44,00,10,00,00,00,00,
6622515,00000118,false,Rx,1,4,00,45,00,10,00,00,00,00,
6633582,00000118,false,Rx,1,4,00,46,00,10,00,00,00,00,
6649103,00000118,false,Rx,1,4,00,47,00,10,00,00,00,00,
6653595,00000118,false,Rx,1,4,00,48,00,10,00,00,00,00,
6662528,00000118,false,Rx,1,4,00,49,00,10,00,00,00,00,
6673559,00000118,false,Rx,1,4,00,4A,00,10,00,00,00,00,
6675680,00000200,false,Rx,0,7,1F,C0,00,10,00,03,01,00,
6683517,00000118,false,Rx,1,4,00,4B,00,10,00,00,00,00,
6694515,00000118,false,Rx,1,4,00,4C,00,10,00,00,00,00,
6704521,00000118,false,Rx,1,4,00,4D,00,10,00,00,00,00,
6715512,00000118,false,Rx,1,4,00,4E,00,10,00,00,00,00,
6725518,00000118,false,Rx,1,4,00,4F,00,10,00,00,00,00,
6736513,00000118,false,Rx,1,4,00,40,00,10,00,00,00,00,
6746523,00000118,false,Rx,1,4,00,41,00,10,00,00,00,00,
6753211,00000200,false,Rx,0,7,1F,C0,00,10,00,03,01,00,
6757518,00000118,false,Rx,1,4,00,42,00,10,00,00,00,00,
6766578,00000118,false,Rx,1,4,00,43,00,10,00,00,00,00,
6777865,00000118,false,Rx,1,4,00,44,00,10,00,00,00,00,
6787514,00000118,false,Rx,1,4,00,45,00,10,00,00,00,00,
6798518,00000118,false,Rx,1,4,00,46,00,10,00,00,00,00,
6808516,00000118,false,Rx,1,4,00,47,00,10,00,00,00,00,
6819521,00000118,false,Rx,1,4,00,48,00,10,00,00,00,00,
6828508,00000200,false,Rx,0,7,1F,C0,00,10,00,03,01,00,
6830299,00000118,false,Rx,1,4,00,49,00,10,00,00,00,00,
6840523,00000118,false,Rx,1,4,00,4A,00,10,00,00,00,00,
6849556,00000118,false,Rx,1,4,00,4B,00,10,00,00,00,00,
6860516,00000118,false,Rx,1,4,00,4C,00,10,00,00,00,00,
6869555,00000118,false,Rx,1,4,00,4D,00,10,00,00,00,00,
6881515,00000118,false,Rx,1,4,00,4E,00,10,00,00,00,00,
6890518,00000118,false,Rx,1,4,00,4F,00,10,00,00,00,00,
6901536,00000118,false,Rx,1,4,00,40,00,10,00,00,00,00,
6905510,00000200,false,Rx,0,7,1F,C0,00,10,00,03,01,00,
6911516,00000118,false,Rx,1,4,00,41,00,10,00,00,00,00,
6922520,00000118,false,Rx,1,4,00,42,00,10,00,00,00,00,
6932515,00000118,false,Rx,1,4,00,43,00,10,00,00,00,00,
6943545,00000118,false,Rx,1,4,00,44,00,10,00,00,00,00,
6953515,00000118,false,Rx,1,4,00,45,00,10,00,00,00,00,
6963519,00000118,false,Rx,1,4,00,46,00,10,00,00,00,00,
6965435,17F0000F,true,Rx,1,8,00,0F,00,00,00,00,00,80,
6973518,00000118,false,Rx,1,4,00,47,00,10,00,00,00,00,
6983515,00000118,false,Rx,1,4,00,48,00,10,00,00,00,00,
6992517,00000710,false,Rx,0,8,02,10,03,55,55,55,55,55,
6994715,00000118,false,Rx,1,4,00,49,00,10,00,00,00,00,
7004514,00000118,false,Rx,1,4,00,4A,00,10,00,00,00,00,
7014525,00000118,false,Rx,1,4,00,4B,00,10,00,00,00,00,
7025514,00000118,false,Rx,1,4,00,4C,00,10,00,00,00,00,
7035516,00000118,false,Rx,1,4,00,4D,00,10,00,00,00,00,
7046522,00000118,false,Rx,1,4,00,4E,00,10,00,00,00,00,
7055545,00000118,false,Rx,1,4,00,4F,00,10,00,00,00,00,
7066517,00000118,false,Rx,1,4,00,40,00,10,00,00,00,00,
7075537,00000118,false,Rx,1,4,00,41,00,10,00,00,00,00,
7086547,00000118,false,Rx,1,4,00,42,00,10,00,00,00,00,
7096516,00000118,false,Rx,1,4,00,43,00,10,00,00,00,00,
7107517,00000118,false,Rx,1,4,00,44,00,10,00,00,00,00,
7117515,00000118,false,Rx,1,4,00,45,00,10,00,00,00,00,
7128518,00000118,false,Rx,1,4,00,46,00,10,00,00,00,00,
7138527,00000118,false,Rx,1,4,00,47,00,10,00,00,00,00,
7150128,00000118,false,Rx,1,4,00,48,00,10,00,00,00,00,
7159527,00000118,false,Rx,1,4,00,49,00,10,00,00,00,00,
7170514,00000118,false,Rx,1,4,00,4A,00,10,00,00,00,00,
7179517,00000118,false,Rx,1,4,00,4B,00,10,00,00,00,00,
7190554,00000118,false,Rx,1,4,00,4C,00,10,00,00,00,00,
7200517,00000118,false,Rx,1,4,00,4D,00,10,00,00,00,00,
7211517,00000118,false,Rx,1,4,00,4E,00,10,00,00,00,00,
7221591,00000118,false,Rx,1,4,00,4F,00,10,00,00,00,00,
7232514,00000118,false,Rx,1,4,00,40,00,10,00,00,00,00,
7242518,00000118,false,Rx,1,4,00,41,00,10,00,00,00,00,
7253807,00000118,false,Rx,1,4,00,42,00,10,00,00,00,00,
7262561,00000118,false,Rx,1,4,00,43,00,10,00,00,00,00,
7273525,00000118,false,Rx,1,4,00,44,00,10,00,00,00,00,
7282553,00000118,false,Rx,1,4,00,45,00,10,00,00,00,00,
7294515,00000118,false,Rx,1,4,00,46,00,10,00,00,00,00,
7303523,00000118,false,Rx,1,4,00,47,00,10,00,00,00,00,
7314542,00000118,false,Rx,1,4,00,48,00,10,00,00,00,00,
7324521,00000118,false,Rx,1,4,00,49,00,10,00,00,00,00,
7335515,00000118,false,Rx,1,4,00,4A,00,10,00,00,00,00,
7345518,00000118,false,Rx,1,4,00,4B,00,10,00,00,00,00,
7356515,00000118,false,Rx,1,4,00,4C,00,10,00,00,00,00,
7366519,00000118,false,Rx,1,4,00,4D,00,10,00,00,00,00,
7377519,00000118,false,Rx,1,4,00,4E,00,10,00,00,00,00,
7386558,00000118,false,Rx,1,4,00,4F,00,10,00,00,00,00,
7398516,00000118,false,Rx,1,4,00,40,00,10,00,00,00,00,
7407517,00000118,false,Rx,1,4,00,41,00,10,00,00,00,00,
7418519,00000118,false,Rx,1,4,00,42,00,10,00,00,00,00,
7428523,00000118,false,Rx,1,4,00,43,00,10,00,00,00,00,
7439515,00000118,false,Rx,1,4,00,44,00,10,00,00,00,00,
7449518,00000118,false,Rx,1,4,00,45,00,10,00,00,00,00,
7460515,00000118,false,Rx,1,4,00,46,00,10,00,00,00,00,
7470519,00000118,false,Rx,1,4,00,47,00,10,00,00,00,00,
7480515,00000118,false,Rx,1,4,00,48,00,10,00,00,00,00,
7480536,17F0000F,true,Rx,1,8,00,0F,00,00,00,00,00,80,
7490519,00000118,false,Rx,1,4,00,49,00,10,00,00,00,00,
7496512,00000710,false,Rx,0,8,02,10,03,55,55,55,55,55,
7500515,00000118,false,Rx,1,4,00,4A,00,10,00,00,00,00,
7510615,00000118,false,Rx,1,4,00,4B,00,10,00,00,00,00,
7521519,00000118,false,Rx,1,4,00,4C,00,10,00,00,00,00,
7530539,00000118,false,Rx,1,4,00,4D,00,10,00,00,00,00,
7541544,00000118,false,Rx,1,4,00,4E,00,10,00,00,00,00,
7551517,00000118,false,Rx,1,4,00,4F,00,10,00,00,00,00,
7562514,00000118,false,Rx,1,4,00,40,00,10,00,00,00,00,
7572520,00000118,false,Rx,1,4,00,41,00,10,00,00,00,00,
7583514,00000118,false,Rx,1,4,00,42,00,10,00,00,00,00,
7593519,00000118,false,Rx,1,4,00,43,00,10,00,00,00,00,
7604514,00000118,false,Rx,1,4,00,44,00,10,00,00,00,00,
7614521,00000118,false,Rx,1,4,00,45,00,10,00,00,00,00,
7625514,00000118,false,Rx,1,4,00,46,00,10,00,00,00,00,
7634529,00000118,false,Rx,1,4,00,47,00,10,00,00,00,00,
7647640,00000118,false,Rx,1,4,00,48,00,10,00,00,00,00,
7656907,00000118,false,Rx,1,4,00,49,00,10,00,00,00,00,
7666514,00000118,false,Rx,1,4,00,4A,00,10,00,00,00,00,
7676520,00000118,false,Rx,1,4,00,4B,00,10,00,00,00,00,
7686514,00000118,false,Rx,1,4,00,4C,00,10,00,00,00,00,
7696521,00000118,false,Rx,1,4,00,4D,00,10,00,00,00,00,
7707514,00000118,false,Rx,1,4,00,4E,00,10,00,00,00,00,
7717517,00000118,false,Rx,1,4,00,4F,00,10,00,00,00,00,
7728514,00000118,false,Rx,1,4,00,40,00,10,00,00,00,00,
7737562,00000118,false,Rx,1,4,00,41,00,10,00,00,00,00,
7749514,00000118,false,Rx,1,4,00,42,00,10,00,00,00,00,
7758520,00000118,false,Rx,1,4,00,43,00,10,00,00,00,00,
7769587,00000118,false,Rx,1,4,00,44,00,10,00,00,00,00,
7779515,00000118,false,Rx,1,4,00,45,00,10,00,00,00,00,
7790518,00000118,false,Rx,1,4,00,46,00,10,00,00,00,00,
7799555,00000118,false,Rx,1,4,00,47,00,10,00,00,00,00,
7811519,00000118,false,Rx,1,4,00,48,00,10,00,00,00,00,
7820520,00000118,false,Rx,1,4,00,49,00,10,00,00,00,00,
7831520,00000118,false,Rx,1,4,00,4A,00,10,00,00,00,00,
7841518,00000118,false,Rx,1,4,00,4B,00,10,00,00,00,00,
7852517,00000118,false,Rx,1,4,00,4C,00,10,00,00,00,00,
7862516,00000118,false,Rx,1,4,00,4D,00,10,00,00,00,00,
7873517,00000118,false,Rx,1,4,00,4E,00,10,00,00,00,00,
7883517,00000118,false,Rx,1,4,00,4F,00,10,00,00,00,00,
7893517,00000118,false,Rx,1,4,00,40,00,10,00,00,00,00,
7903516,00000118,false,Rx,1,4,00,41,00,10,00,00,00,00,
7914517,00000118,false,Rx,1,4,00,42,00,10,00,00,00,00,
7923554,00000118,false,Rx,1,4,00,43,00,10,00,00,00,00,
7935517,00000118,false,Rx,1,4,00,44,00,10,00,00,00,00,
7944516,00000118,false,Rx,1,4,00,45,00,10,00,00,00,00,
7955517,00000118,false,Rx,1,4,00,46,00,10,00,00,00,00,
7965516,00000118,false,Rx,1,4,00,47,00,10,00,00,00,00,
7976519,00000118,false,Rx,1,4,00,48,00,10,00,00,00,00,
7986518,00000118,false,Rx,1,4,00,49,00,10,00,00,00,00,
7997517,00000118,false,Rx,1,4,00,4A,00,10,00,00,00,00,
7997541,17F0000F,true,Rx,1,8,00,0F,00,00,00,00,00,80,
8007516,00000118,false,Rx,1,4,00,4B,00,10,00,00,00,00,
8018173,00000118,false,Rx,1,4,00,4C,00,10,00,00,00,00,
8027519,00000118,false,Rx,1,4,00,4D,00,10,00,00,00,00,
8038515,00000118,false,Rx,1,4,00,4E,00,10,00,00,00,00,
8047526,00000118,false,Rx,1,4,00,4F,00,10,00,00,00,00,
8058547,00000118,false,Rx,1,4,00,40,00,10,00,00,00,00,
8068520,00000118,false,Rx,1,4,00,41,00,10,00,00,00,00,
8079516,00000118,false,Rx,1,4,00,42,00,10,00,00,00,00,
8089519,00000118,false,Rx,1,4,00,43,00,10,00,00,00,00,
8099514,00000118,false,Rx,1,4,00,44,00,10,00,00,00,00,
8109520,00000118,false,Rx,1,4,00,45,00,10,00,00,00,00,
8120579,00000118,false,Rx,1,4,00,46,00,10,00,00,00,00,
8135962,00000118,false,Rx,1,4,00,47,00,10,00,00,00,00,
8142625,00000118,false,Rx,1,4,00,48,00,10,00,00,00,00,
8150564,00000118,false,Rx,1,4,00,49,00,10,00,00,00,00,
8162515,00000118,false,Rx,1,4,00,4A,00,10,00,00,00,00,
8171534,00000118,false,Rx,1,4,00,4B,00,10,00,00,00,00,
8182540,00000118,false,Rx,1,4,00,4C,00,10,00,00,00,00,
8192518,00000118,false,Rx,1,4,00,4D,00,10,00,00,00,00,
8203517,00000118,false,Rx,1,4,00,4E,00,10,00,00,00,00,
8213517,00000118,false,Rx,1,4,00,4F,00,10,00,00,00,00,
8224517,00000118,false,Rx,1,4,00,40,00,10,00,00,00,00,
8234518,00000118,false,Rx,1,4,00,41,00,10,00,00,00,00,
8245516,00000118,false,Rx,1,4,00,42,00,10,00,00,00,00,
8254557,00000118,false,Rx,1,4,00,43,00,10,00,00,00,00,
8266517,00000118,false,Rx,1,4,00,44,00,10,00,00,00,00,
8275604,00000118,false,Rx,1,4,00,45,00,10,00,00,00,00,
8286536,00000118,false,Rx,1,4,00,46,00,10,00,00,00,00,
8296520,00000118,false,Rx,1,4,00,47,00,10,00,00,00,00,
8306530,00000118,false,Rx,1,4,00,48,00,10,00,00,00,00,
8317271,00000118,false,Rx,1,4,00,49,00,10,00,00,00,00,
8327515,00000118,false,Rx,1,4,00,4A,00,10,00,00,00,00,
8337520,00000118,false,Rx,1,4,00,4B,00,10,00,00,00,00,
8348515,00000118,false,Rx,1,4,00,4C,00,10,00,00,00,00,
8358516,00000118,false,Rx,1,4,00,4D,00,10,00,00,00,00,
8369519,00000118,false,Rx,1,4,00,4E,00,10,00,00,00,00,
8378564,00000118,false,Rx,1,4,00,4F,00,10,00,00,00,00,
8390518,00000118,false,Rx,1,4,00,40,00,10,00,00,00,00,
8399514,00000118,false,Rx,1,4,00,41,00,10,00,00,00,00,
8410519,00000118,false,Rx,1,4,00,42,00,10,00,00,00,00,
8420515,00000118,false,Rx,1,4,00,43,00,10,00,00,00,00,
8431519,00000118,false,Rx,1,4,00,44,00,10,00,00,00,00,
8441514,00000118,false,Rx,1,4,00,45,00,10,00,00,00,00,
8452519,00000118,false,Rx,1,4,00,46,00,10,00,00,00,00,
8462515,00000118,false,Rx,1,4,00,47,00,10,00,00,00,00,
8473519,00000118,false,Rx,1,4,00,48,00,10,00,00,00,00,
8482525,00000118,false,Rx,1,4,00,49,00,10,00,00,00,00,
8493541,00000118,false,Rx,1,4,00,4A,00,10,00,00,00,00,
8503515,00000118,false,Rx,1,4,00,4B,00,10,00,00,00,00,
8513564,00000118,false,Rx,1,4,00,4C,00,10,00,00,00,00,
8515451,17F0000F,true,Rx,1,8,00,0F,00,00,00,00,00,80,
8523521,00000118,false,Rx,1,4,00,4D,00,10,00,00,00,00,
8533543,00000118,false,Rx,1,4,00,4E,00,10,00,00,00,00,
8543514,00000118,false,Rx,1,4,00,4F,00,10,00,00,00,00,
8554519,00000118,false,Rx,1,4,00,40,00,10,00,00,00,00,
8564514,00000118,false,Rx,1,4,00,41,00,10,00,00,00,00,
8575519,00000118,false,Rx,1,4,00,42,00,10,00,00,00,00,
8585519,00000118,false,Rx,1,4,00,43,00,10,00,00,00,00,
8596518,00000118,false,Rx,1,4,00,44,00,10,00,00,00,00,
8605553,00000118,false,Rx,1,4,00,45,00,10,00,00,00,00,
8617857,00000118,false,Rx,1,4,00,46,00,10,00,00,00,00,
8626587,00000118,false,Rx,1,4,00,47,00,10,00,00,00,00,
8637908,00000118,false,Rx,1,4,00,48,00,10,00,00,00,00,
8647525,00000118,false,Rx,1,4,00,49,00,10,00,00,00,00,
8658514,00000118,false,Rx,1,4,00,4A,00,10,00,00,00,00,
8668521,00000118,false,Rx,1,4,00,4B,00,10,00,00,00,00,
8679527,00000118,false,Rx,1,4,00,4C,00,10,00,00,00,00,
8689517,00000118,false,Rx,1,4,00,4D,00,10,00,00,00,00,
8700516,00000118,false,Rx,1,4,00,4E,00,10,00,00,00,00,
8709562,00000118,false,Rx,1,4,00,4F,00,10,00,00,00,00,
8720514,00000118,false,Rx,1,4,00,40,00,10,00,00,00,00,
8729557,00000118,false,Rx,1,4,00,41,00,10,00,00,00,00,
8741515,00000118,false,Rx,1,4,00,42,00,10,00,00,00,00,
8750521,00000118,false,Rx,1,4,00,43,00,10,00,00,00,00,
8761655,00000118,false,Rx,1,4,00,44,00,10,00,00,00,00,
8771522,00000118,false,Rx,1,4,00,45,00,10,00,00,00,00,
8782518,00000118,false,Rx,1,4,00,46,00,10,00,00,00,00,
8792517,00000118,false,Rx,1,4,00,47,00,10,00,00,00,00,
8803521,00000118,false,Rx,1,4,00,48,00,10,00,00,00,00,
8813514,00000118,false,Rx,1,4,00,49,00,10,00,00,00,00,
8824518,00000118,false,Rx,1,4,00,4A,00,10,00,00,00,00,
8833562,00000118,false,Rx,1,4,00,4B,00,10,00,00,00,00,
8844838,00000118,false,Rx,1,4,00,4C,00,10,00,00,00,00,
8854515,00000118,false,Rx,1,4,00,4D,00,10,00,00,00,00,
8865518,00000118,false,Rx,1,4,00,4E,00,10,00,00,00,00,
8875515,00000118,false,Rx,1,4,00,4F,00,10,00,00,00,00,
8886518,00000118,false,Rx,1,4,00,40,00,10,00,00,00,00,
8896516,00000118,false,Rx,1,4,00,41,00,10,00,00,00,00,
8907518,00000118,false,Rx,1,4,00,42,00,10,00,00,00,00,
8917515,00000118,false,Rx,1,4,00,43,00,10,00,00,00,00,
